T1E5C 000:008.038   SEGGER J-Link V8.12e Log File
T1E5C 000:008.217   DLL Compiled: Feb  5 2025 12:18:17
T1E5C 000:008.224   Logging started @ 2025-05-05 15:34
T1E5C 000:008.229   Process: C:\Users\dietl\AppData\Local\Keil_v5\UV4\UV4.exe
T1E5C 000:008.250 - 8.245ms 
T1E5C 000:008.260 JLINK_SetWarnOutHandler(...)
T1E5C 000:008.264 - 0.005ms 
T1E5C 000:008.269 JLINK_OpenEx(...)
T1E5C 000:013.220   Firmware: J-Link Lite-XMC4200 Rev.1 compiled Mar 22 2024 08:22:08
T1E5C 000:014.859   Firmware: J-Link Lite-XMC4200 Rev.1 compiled Mar 22 2024 08:22:08
T1E5C 000:035.141   Hardware: V1.00
T1E5C 000:035.175   S/N: 599013265
T1E5C 000:035.183   OEM: SEGGER
T1E5C 000:035.191   Feature(s): None
T1E5C 000:036.794   Bootloader: 2012 Oct 05
T1E5C 000:037.751   USB speed mode: Full speed (12 MBit/s)
T1E5C 000:038.349   TELNET listener socket opened on port 19021
T1E5C 000:038.514   WEBSRV WEBSRV_Init(): Starting webserver thread(s)
T1E5C 000:038.705   WEBSRV Webserver running on local port 19080
T1E5C 000:038.834   Looking for J-Link GUI Server exe at: C:\Users\dietl\AppData\Local\Keil_v5\ARM\Segger\JLinkGUIServer.exe
T1E5C 000:038.960   Looking for J-Link GUI Server exe at: C:\Program Files\SEGGER\JLink_V812e\JLinkGUIServer.exe
T1E5C 000:038.999   Forking J-Link GUI Server: C:\Program Files\SEGGER\JLink_V812e\JLinkGUIServer.exe
T1E5C 000:063.099   J-Link GUI Server info: "J-Link GUI server V8.12e "
T1E5C 000:064.829 - 56.545ms returns "O.K."
T1E5C 000:064.881 JLINK_GetEmuCaps()
T1E5C 000:064.889 - 0.006ms returns 0xB8EA5A33
T1E5C 000:064.899 JLINK_TIF_GetAvailable(...)
T1E5C 000:065.327 - 0.430ms 
T1E5C 000:065.389 JLINK_SetErrorOutHandler(...)
T1E5C 000:065.394 - 0.005ms 
T1E5C 000:065.422 JLINK_ExecCommand("ProjectFile = "C:\Users\dietl\Desktop\WFP2_Trixi\infineon-bldc-shield-software-v1_00_EN\03_shield_software\uVision_project_files\HALL\JLinkSettings.ini"", ...). 
T1E5C 000:078.851   Ref file found at: C:\Users\dietl\AppData\Local\Keil_v5\ARM\Segger\JLinkDevices.ref
T1E5C 000:079.009   REF file references invalid XML file: C:\Program Files\SEGGER\JLink_V812e\JLinkDevices.xml
T1E5C 000:080.500 - 15.073ms returns 0x00
T1E5C 000:083.233 JLINK_ExecCommand("Device = TLE9879QXA40", ...). 
T1E5C 000:086.164   Device "TLE9879" selected.
T1E5C 000:086.475 - 3.221ms returns 0x00
T1E5C 000:086.535 JLINK_ExecCommand("DisableConnectionTimeout", ...). 
T1E5C 000:086.549   ERROR: Unknown command
T1E5C 000:086.556 - 0.014ms returns 0x01
T1E5C 000:086.562 JLINK_GetHardwareVersion()
T1E5C 000:086.569 - 0.005ms returns 10000
T1E5C 000:086.575 JLINK_GetDLLVersion()
T1E5C 000:086.580 - 0.004ms returns 81205
T1E5C 000:086.585 JLINK_GetOEMString(...)
T1E5C 000:086.591 JLINK_GetFirmwareString(...)
T1E5C 000:086.596 - 0.004ms 
T1E5C 000:096.014 JLINK_GetDLLVersion()
T1E5C 000:096.042 - 0.028ms returns 81205
T1E5C 000:096.048 JLINK_GetCompileDateTime()
T1E5C 000:096.053 - 0.004ms 
T1E5C 000:098.549 JLINK_GetFirmwareString(...)
T1E5C 000:098.577 - 0.028ms 
T1E5C 000:100.748 JLINK_GetHardwareVersion()
T1E5C 000:100.763 - 0.014ms returns 10000
T1E5C 000:102.754 JLINK_GetSN()
T1E5C 000:102.768 - 0.013ms returns 599013265
T1E5C 000:104.709 JLINK_GetOEMString(...)
T1E5C 000:107.510 JLINK_TIF_Select(JLINKARM_TIF_SWD)
T1E5C 000:108.960 - 1.449ms returns 0x00
T1E5C 000:109.002 JLINK_HasError()
T1E5C 000:109.024 JLINK_SetSpeed(5000)
T1E5C 000:109.385 - 0.363ms 
T1E5C 000:109.411 JLINK_GetId()
T1E5C 000:112.302   InitTarget() start
T1E5C 000:112.329    J-Link Script File: Executing InitTarget()
T1E5C 000:174.763   InitTarget() end - Took 56.9ms
T1E5C 000:179.403   Found SW-DP with ID 0x2BA01477
T1E5C 000:187.423   DPIDR: 0x2BA01477
T1E5C 000:189.486   CoreSight SoC-400 or earlier
T1E5C 000:193.010   Scanning AP map to find all available APs
T1E5C 000:196.324   AP[1]: Stopped AP scan as end of AP map has been reached
T1E5C 000:198.359   AP[0]: AHB-AP (IDR: 0x24770011, ADDR: 0x00000000)
T1E5C 000:200.352   Iterating through AP map to find AHB-AP to use
T1E5C 000:204.179   AP[0]: Core found
T1E5C 000:206.350   AP[0]: AHB-AP ROM base: 0xE00FF000
T1E5C 000:210.630   CPUID register: 0x412FC231. Implementer code: 0x41 (ARM)
T1E5C 000:213.176   Found Cortex-M3 r2p1, Little endian.
T1E5C 000:214.153   -- Max. mem block: 0x000036C0
T1E5C 000:217.457   Cortex-M: The connected J-Link (S/N 599013265) uses an old firmware module: V2 (current is 3)
T1E5C 000:217.534   CPU_ReadMem(4 bytes @ 0xE000EDF0)
T1E5C 000:218.307   CPU_ReadMem(4 bytes @ 0xE0002000)
T1E5C 000:221.829   FPUnit: 2 code (BP) slots and 0 literal slots
T1E5C 000:221.855   CPU_ReadMem(4 bytes @ 0xE000EDFC)
T1E5C 000:222.515   CPU_WriteMem(4 bytes @ 0xE000EDFC)
T1E5C 000:223.048   CPU_ReadMem(4 bytes @ 0xE0001000)
T1E5C 000:223.466   CPU_WriteMem(4 bytes @ 0xE0001000)
T1E5C 000:223.913   CPU_ReadMem(4 bytes @ 0xE000ED88)
T1E5C 000:224.374   CPU_WriteMem(4 bytes @ 0xE000ED88)
T1E5C 000:225.013   CPU_ReadMem(4 bytes @ 0xE000ED88)
T1E5C 000:225.632   CPU_WriteMem(4 bytes @ 0xE000ED88)
T1E5C 000:228.991   CoreSight components:
T1E5C 000:231.012   ROMTbl[0] @ E00FF000
T1E5C 000:231.035   CPU_ReadMem(64 bytes @ 0xE00FF000)
T1E5C 000:232.217   CPU_ReadMem(32 bytes @ 0xE000EFE0)
T1E5C 000:235.661   [0][0]: E000E000 CID B105E00D PID 000BB000 SCS
T1E5C 000:235.691   CPU_ReadMem(32 bytes @ 0xE0001FE0)
T1E5C 000:238.722   [0][1]: E0001000 CID B105E00D PID 003BB002 DWT
T1E5C 000:238.743   CPU_ReadMem(32 bytes @ 0xE0002FE0)
T1E5C 000:242.886   [0][2]: E0002000 CID B105E00D PID 002BB003 FPB
T1E5C 000:243.504 - 134.091ms returns 0x2BA01477
T1E5C 000:243.537 JLINK_GetDLLVersion()
T1E5C 000:243.542 - 0.004ms returns 81205
T1E5C 000:243.547 JLINK_CORE_GetFound()
T1E5C 000:243.552 - 0.004ms returns 0x30000FF
T1E5C 000:243.557 JLINK_GetDebugInfo(0x100 = JLINKARM_ROM_TABLE_ADDR_INDEX)
T1E5C 000:243.562   Value=0xE00FF000
T1E5C 000:243.568 - 0.011ms returns 0
T1E5C 000:245.786 JLINK_GetDebugInfo(0x100 = JLINKARM_ROM_TABLE_ADDR_INDEX)
T1E5C 000:245.797   Value=0xE00FF000
T1E5C 000:245.804 - 0.018ms returns 0
T1E5C 000:245.809 JLINK_GetDebugInfo(0x101 = JLINKARM_DEBUG_INFO_ETM_ADDR_INDEX)
T1E5C 000:245.814   Value=0x00000000
T1E5C 000:245.820 - 0.010ms returns 0
T1E5C 000:245.831 JLINK_ReadMemEx(0xE0041FF0, 0x10 Bytes, Flags = 0x02000004)
T1E5C 000:245.849   CPU_ReadMem(16 bytes @ 0xE0041FF0)
T1E5C 000:246.559   Data:  00 00 00 00 00 00 00 00 00 00 00 00 00 00 00 00
T1E5C 000:246.572 - 0.741ms returns 16 (0x10)
T1E5C 000:246.579 JLINK_GetDebugInfo(0x102 = JLINKARM_DEBUG_INFO_MTB_ADDR_INDEX)
T1E5C 000:246.584   Value=0x00000000
T1E5C 000:246.590 - 0.010ms returns 0
T1E5C 000:246.595 JLINK_GetDebugInfo(0x103 = JLINKARM_DEBUG_INFO_TPIU_ADDR_INDEX)
T1E5C 000:246.600   Value=0x00000000
T1E5C 000:246.606 - 0.010ms returns 0
T1E5C 000:246.611 JLINK_GetDebugInfo(0x104 = JLINKARM_DEBUG_INFO_ITM_ADDR_INDEX)
T1E5C 000:246.615   Value=0xE0000000
T1E5C 000:246.621 - 0.010ms returns 0
T1E5C 000:246.626 JLINK_GetDebugInfo(0x105 = JLINKARM_DEBUG_INFO_DWT_ADDR_INDEX)
T1E5C 000:246.630   Value=0xE0001000
T1E5C 000:246.636 - 0.010ms returns 0
T1E5C 000:246.641 JLINK_GetDebugInfo(0x106 = JLINKARM_DEBUG_INFO_FPB_ADDR_INDEX)
T1E5C 000:246.644   Value=0xE0002000
T1E5C 000:246.650 - 0.010ms returns 0
T1E5C 000:246.656 JLINK_GetDebugInfo(0x107 = JLINKARM_DEBUG_INFO_NVIC_ADDR_INDEX)
T1E5C 000:246.660   Value=0xE000E000
T1E5C 000:246.665 - 0.010ms returns 0
T1E5C 000:246.670 JLINK_GetDebugInfo(0x10C = JLINKARM_DEBUG_INFO_DBG_ADDR_INDEX)
T1E5C 000:246.674   Value=0xE000EDF0
T1E5C 000:246.680 - 0.010ms returns 0
T1E5C 000:246.685 JLINK_GetDebugInfo(0x01 = Unknown)
T1E5C 000:246.689   Value=0x00000000
T1E5C 000:246.695 - 0.010ms returns 0
T1E5C 000:246.700 JLINK_ReadMemU32(0xE000ED00, 0x1 Items)
T1E5C 000:246.708   CPU_ReadMem(4 bytes @ 0xE000ED00)
T1E5C 000:247.298   Data:  31 C2 2F 41
T1E5C 000:247.311   Debug reg: CPUID
T1E5C 000:247.318 - 0.617ms returns 1 (0x1)
T1E5C 000:247.325 JLINK_GetDebugInfo(0x10F = JLINKARM_DEBUG_INFO_HAS_CORTEX_M_SECURITY_EXT_INDEX)
T1E5C 000:247.329   Value=0x00000000
T1E5C 000:247.336 - 0.010ms returns 0
T1E5C 000:247.341 JLINK_HasError()
T1E5C 000:247.354 JLINK_SetResetType(JLINKARM_CM3_RESET_TYPE_NORMAL)
T1E5C 000:247.359 - 0.004ms returns JLINKARM_CM3_RESET_TYPE_NORMAL
T1E5C 000:247.364 JLINK_Reset()
T1E5C 000:249.511   ResetTarget() start
T1E5C 000:249.529    J-Link Script File: Executing ResetTarget()
T1E5C 000:253.254   CPU_ReadMem(64 bytes @ 0x11000000)
T1E5C 000:254.477    -- Updating C cache (64 bytes @ 0x11000000)
T1E5C 000:254.513    -- Read from C cache (4 bytes @ 0x11000004)
T1E5C 000:254.532   CPU_WriteMem(4 bytes @ 0xE0002000)
T1E5C 000:255.175   CPU_ReadMem(4 bytes @ 0xE0002008)
T1E5C 000:255.787   CPU_WriteMem(4 bytes @ 0xE0002008)
T1E5C 000:256.286   CPU_WriteMem(4 bytes @ 0xE000ED0C)
T1E5C 000:358.460   CPU_WriteMem(4 bytes @ 0xE0002008)
T1E5C 000:363.851   ResetTarget() end - Took 109ms
T1E5C 000:366.617   Device specific reset executed.
T1E5C 000:371.068   CPU_WriteMem(4 bytes @ 0xE0002000)
T1E5C 000:371.732   CPU_ReadMem(4 bytes @ 0xE000EDFC)
T1E5C 000:372.359   CPU_ReadMem(4 bytes @ 0xE0001000)
T1E5C 000:372.920 - 125.555ms 
T1E5C 000:372.954 JLINK_Halt()
T1E5C 000:372.959 - 0.005ms returns 0x00
T1E5C 000:372.966 JLINK_ReadMemU32(0xE000EDF0, 0x1 Items)
T1E5C 000:372.979   CPU_ReadMem(4 bytes @ 0xE000EDF0)
T1E5C 000:373.461   Data:  03 00 03 00
T1E5C 000:373.481   Debug reg: DHCSR
T1E5C 000:373.491 - 0.525ms returns 1 (0x1)
T1E5C 000:373.522 JLINK_WriteU32(0xE000EDF0, 0xA05F0003)
T1E5C 000:373.529   Debug reg: DHCSR
T1E5C 000:373.817   CPU_WriteMem(4 bytes @ 0xE000EDF0)
T1E5C 000:374.483 - 0.971ms returns 0 (0x00000000)
T1E5C 000:374.509 JLINK_WriteU32(0xE000EDFC, 0x01000000)
T1E5C 000:374.514   Debug reg: DEMCR
T1E5C 000:374.542   CPU_WriteMem(4 bytes @ 0xE000EDFC)
T1E5C 000:375.275 - 0.765ms returns 0 (0x00000000)
T1E5C 000:383.831 JLINK_GetHWStatus(...)
T1E5C 000:384.303 - 0.472ms returns 0
T1E5C 000:394.850 JLINK_GetNumBPUnits(Type = 0xFFFFFF00)
T1E5C 000:394.881 - 0.032ms returns 0x02
T1E5C 000:394.886 JLINK_GetNumBPUnits(Type = 0xF0)
T1E5C 000:394.891 - 0.004ms returns 0x2000
T1E5C 000:394.896 JLINK_GetNumWPUnits()
T1E5C 000:394.900 - 0.004ms returns 1
T1E5C 000:400.630 JLINK_GetSpeed()
T1E5C 000:400.649 - 0.018ms returns 3000
T1E5C 000:404.453 JLINK_ReadMemU32(0xE000E004, 0x1 Items)
T1E5C 000:404.487   CPU_ReadMem(4 bytes @ 0xE000E004)
T1E5C 000:405.244   Data:  00 00 00 00
T1E5C 000:405.263 - 0.809ms returns 1 (0x1)
T1E5C 000:405.270 JLINK_ReadMemU32(0xE000E004, 0x1 Items)
T1E5C 000:405.280   CPU_ReadMem(4 bytes @ 0xE000E004)
T1E5C 000:405.939   Data:  00 00 00 00
T1E5C 000:405.954 - 0.683ms returns 1 (0x1)
T1E5C 000:405.962 JLINK_WriteMemEx(0xE0001000, 0x0000001C Bytes, Flags = 0x02000004)
T1E5C 000:405.967   Data:  01 00 00 00 00 00 00 00 00 00 00 00 00 00 00 00 ...
T1E5C 000:405.980   CPU_WriteMem(28 bytes @ 0xE0001000)
T1E5C 000:406.668 - 0.705ms returns 0x1C
T1E5C 000:406.709 JLINK_Halt()
T1E5C 000:406.718 - 0.009ms returns 0x00
T1E5C 000:406.727 JLINK_IsHalted()
T1E5C 000:406.738 - 0.011ms returns TRUE
T1E5C 000:412.542 JLINK_WriteMem(0x18000000, 0xD8 Bytes, ...)
T1E5C 000:412.556   Data:  00 BE 0A E0 0D 78 2D 06 68 40 08 24 40 00 00 D3 ...
T1E5C 000:412.757   CPU_WriteMem(216 bytes @ 0x18000000)
T1E5C 000:414.994 - 2.450ms returns 0xD8
T1E5C 000:415.079 JLINK_HasError()
T1E5C 000:415.090 JLINK_WriteReg(R0, 0x1100A000)
T1E5C 000:415.101 - 0.011ms returns 0
T1E5C 000:415.108 JLINK_WriteReg(R1, 0x00B71B00)
T1E5C 000:415.115 - 0.006ms returns 0
T1E5C 000:415.121 JLINK_WriteReg(R2, 0x00000001)
T1E5C 000:415.128 - 0.006ms returns 0
T1E5C 000:415.135 JLINK_WriteReg(R3, 0x00000000)
T1E5C 000:415.141 - 0.006ms returns 0
T1E5C 000:415.148 JLINK_WriteReg(R4, 0x00000000)
T1E5C 000:415.154 - 0.006ms returns 0
T1E5C 000:415.161 JLINK_WriteReg(R5, 0x00000000)
T1E5C 000:415.167 - 0.006ms returns 0
T1E5C 000:415.174 JLINK_WriteReg(R6, 0x00000000)
T1E5C 000:415.180 - 0.006ms returns 0
T1E5C 000:415.186 JLINK_WriteReg(R7, 0x00000000)
T1E5C 000:415.192 - 0.006ms returns 0
T1E5C 000:415.212 JLINK_WriteReg(R8, 0x00000000)
T1E5C 000:415.218 - 0.018ms returns 0
T1E5C 000:415.232 JLINK_WriteReg(R9, 0x180000B4)
T1E5C 000:415.241 - 0.009ms returns 0
T1E5C 000:415.248 JLINK_WriteReg(R10, 0x00000000)
T1E5C 000:415.254 - 0.006ms returns 0
T1E5C 000:415.261 JLINK_WriteReg(R11, 0x00000000)
T1E5C 000:415.267 - 0.006ms returns 0
T1E5C 000:415.274 JLINK_WriteReg(R12, 0x00000000)
T1E5C 000:415.281 - 0.006ms returns 0
T1E5C 000:415.288 JLINK_WriteReg(R13 (SP), 0x18001000)
T1E5C 000:415.295 - 0.007ms returns 0
T1E5C 000:415.301 JLINK_WriteReg(R14, 0x18000001)
T1E5C 000:415.307 - 0.006ms returns 0
T1E5C 000:415.317 JLINK_WriteReg(R15 (PC), 0x18000020)
T1E5C 000:415.323 - 0.009ms returns 0
T1E5C 000:415.330 JLINK_WriteReg(XPSR, 0x01000000)
T1E5C 000:415.337 - 0.006ms returns 0
T1E5C 000:415.344 JLINK_WriteReg(MSP, 0x18001000)
T1E5C 000:415.350 - 0.006ms returns 0
T1E5C 000:415.357 JLINK_WriteReg(PSP, 0x18001000)
T1E5C 000:415.363 - 0.006ms returns 0
T1E5C 000:415.370 JLINK_WriteReg(CFBP, 0x00000000)
T1E5C 000:415.376 - 0.006ms returns 0
T1E5C 000:415.383 JLINK_SetBPEx(Addr = 0x18000000, Type = 0xFFFFFFF2)
T1E5C 000:415.394 - 0.011ms returns 0x00000001
T1E5C 000:415.401 JLINK_Go()
T1E5C 000:415.414   CPU_WriteMem(4 bytes @ 0xE0002000)
T1E5C 000:416.174   CPU_ReadMem(4 bytes @ 0xE0001000)
T1E5C 000:416.864   CPU_WriteMem(4 bytes @ 0xE0002008)
T1E5C 000:416.881   CPU_WriteMem(4 bytes @ 0xE000200C)
T1E5C 000:417.860   CPU_WriteMem(4 bytes @ 0xE0001004)
T1E5C 000:425.521   Memory map 'after startup completion point' is active
T1E5C 000:425.555 - 10.153ms 
T1E5C 000:425.566 JLINK_IsHalted()
T1E5C 000:429.471 - 3.904ms returns TRUE
T1E5C 000:429.517 JLINK_ReadReg(R15 (PC))
T1E5C 000:429.525 - 0.007ms returns 0x18000000
T1E5C 000:429.530 JLINK_ClrBPEx(BPHandle = 0x00000001)
T1E5C 000:429.535 - 0.005ms returns 0x00
T1E5C 000:429.541 JLINK_ReadReg(R0)
T1E5C 000:429.545 - 0.004ms returns 0x00000000
T1E5C 000:429.942 JLINK_HasError()
T1E5C 000:429.954 JLINK_WriteReg(R0, 0x1100A000)
T1E5C 000:429.960 - 0.005ms returns 0
T1E5C 000:429.965 JLINK_WriteReg(R1, 0x00001000)
T1E5C 000:429.969 - 0.004ms returns 0
T1E5C 000:429.975 JLINK_WriteReg(R2, 0x000000FF)
T1E5C 000:429.979 - 0.004ms returns 0
T1E5C 000:429.984 JLINK_WriteReg(R3, 0x00000000)
T1E5C 000:429.988 - 0.004ms returns 0
T1E5C 000:429.993 JLINK_WriteReg(R4, 0x00000000)
T1E5C 000:429.997 - 0.004ms returns 0
T1E5C 000:430.002 JLINK_WriteReg(R5, 0x00000000)
T1E5C 000:430.006 - 0.004ms returns 0
T1E5C 000:430.011 JLINK_WriteReg(R6, 0x00000000)
T1E5C 000:430.015 - 0.004ms returns 0
T1E5C 000:430.021 JLINK_WriteReg(R7, 0x00000000)
T1E5C 000:430.025 - 0.004ms returns 0
T1E5C 000:430.030 JLINK_WriteReg(R8, 0x00000000)
T1E5C 000:430.034 - 0.004ms returns 0
T1E5C 000:430.039 JLINK_WriteReg(R9, 0x180000B4)
T1E5C 000:430.043 - 0.004ms returns 0
T1E5C 000:430.048 JLINK_WriteReg(R10, 0x00000000)
T1E5C 000:430.052 - 0.004ms returns 0
T1E5C 000:430.057 JLINK_WriteReg(R11, 0x00000000)
T1E5C 000:430.061 - 0.004ms returns 0
T1E5C 000:430.066 JLINK_WriteReg(R12, 0x00000000)
T1E5C 000:430.070 - 0.004ms returns 0
T1E5C 000:430.075 JLINK_WriteReg(R13 (SP), 0x18001000)
T1E5C 000:430.080 - 0.005ms returns 0
T1E5C 000:430.085 JLINK_WriteReg(R14, 0x18000001)
T1E5C 000:430.089 - 0.004ms returns 0
T1E5C 000:430.094 JLINK_WriteReg(R15 (PC), 0x18000090)
T1E5C 000:430.099 - 0.004ms returns 0
T1E5C 000:430.104 JLINK_WriteReg(XPSR, 0x01000000)
T1E5C 000:430.108 - 0.004ms returns 0
T1E5C 000:430.113 JLINK_WriteReg(MSP, 0x18001000)
T1E5C 000:430.117 - 0.004ms returns 0
T1E5C 000:430.122 JLINK_WriteReg(PSP, 0x18001000)
T1E5C 000:430.126 - 0.004ms returns 0
T1E5C 000:430.131 JLINK_WriteReg(CFBP, 0x00000000)
T1E5C 000:430.155 - 0.004ms returns 0
T1E5C 000:430.160 JLINK_SetBPEx(Addr = 0x18000000, Type = 0xFFFFFFF2)
T1E5C 000:430.166 - 0.005ms returns 0x00000002
T1E5C 000:430.171 JLINK_Go()
T1E5C 000:430.182   CPU_WriteMem(4 bytes @ 0xE0002000)
T1E5C 000:430.837   CPU_ReadMem(4 bytes @ 0xE0001000)
T1E5C 000:435.039 - 4.867ms 
T1E5C 000:435.058 JLINK_IsHalted()
T1E5C 000:438.846 - 3.787ms returns TRUE
T1E5C 000:438.941 JLINK_ReadReg(R15 (PC))
T1E5C 000:438.956 - 0.014ms returns 0x18000000
T1E5C 000:438.964 JLINK_ClrBPEx(BPHandle = 0x00000002)
T1E5C 000:438.971 - 0.007ms returns 0x00
T1E5C 000:438.979 JLINK_ReadReg(R0)
T1E5C 000:438.985 - 0.006ms returns 0x00000001
T1E5C 000:438.994 JLINK_HasError()
T1E5C 000:439.002 JLINK_WriteReg(R0, 0x1100A000)
T1E5C 000:439.009 - 0.006ms returns 0
T1E5C 000:439.016 JLINK_WriteReg(R1, 0x00001000)
T1E5C 000:439.022 - 0.006ms returns 0
T1E5C 000:439.029 JLINK_WriteReg(R2, 0x000000FF)
T1E5C 000:439.035 - 0.006ms returns 0
T1E5C 000:439.042 JLINK_WriteReg(R3, 0x00000000)
T1E5C 000:439.048 - 0.006ms returns 0
T1E5C 000:439.055 JLINK_WriteReg(R4, 0x00000000)
T1E5C 000:439.061 - 0.006ms returns 0
T1E5C 000:439.068 JLINK_WriteReg(R5, 0x00000000)
T1E5C 000:439.074 - 0.006ms returns 0
T1E5C 000:439.081 JLINK_WriteReg(R6, 0x00000000)
T1E5C 000:439.087 - 0.006ms returns 0
T1E5C 000:439.094 JLINK_WriteReg(R7, 0x00000000)
T1E5C 000:439.100 - 0.006ms returns 0
T1E5C 000:439.107 JLINK_WriteReg(R8, 0x00000000)
T1E5C 000:439.113 - 0.006ms returns 0
T1E5C 000:439.120 JLINK_WriteReg(R9, 0x180000B4)
T1E5C 000:439.126 - 0.006ms returns 0
T1E5C 000:439.133 JLINK_WriteReg(R10, 0x00000000)
T1E5C 000:439.139 - 0.006ms returns 0
T1E5C 000:439.146 JLINK_WriteReg(R11, 0x00000000)
T1E5C 000:439.152 - 0.006ms returns 0
T1E5C 000:439.160 JLINK_WriteReg(R12, 0x00000000)
T1E5C 000:439.166 - 0.006ms returns 0
T1E5C 000:439.173 JLINK_WriteReg(R13 (SP), 0x18001000)
T1E5C 000:439.180 - 0.006ms returns 0
T1E5C 000:439.187 JLINK_WriteReg(R14, 0x18000001)
T1E5C 000:439.193 - 0.006ms returns 0
T1E5C 000:439.200 JLINK_WriteReg(R15 (PC), 0x1800004A)
T1E5C 000:439.206 - 0.006ms returns 0
T1E5C 000:439.213 JLINK_WriteReg(XPSR, 0x01000000)
T1E5C 000:439.219 - 0.006ms returns 0
T1E5C 000:439.226 JLINK_WriteReg(MSP, 0x18001000)
T1E5C 000:439.232 - 0.006ms returns 0
T1E5C 000:439.239 JLINK_WriteReg(PSP, 0x18001000)
T1E5C 000:439.245 - 0.006ms returns 0
T1E5C 000:439.252 JLINK_WriteReg(CFBP, 0x00000000)
T1E5C 000:439.258 - 0.006ms returns 0
T1E5C 000:439.266 JLINK_SetBPEx(Addr = 0x18000000, Type = 0xFFFFFFF2)
T1E5C 000:439.274 - 0.007ms returns 0x00000003
T1E5C 000:439.281 JLINK_Go()
T1E5C 000:439.293   CPU_WriteMem(4 bytes @ 0xE0002000)
T1E5C 000:440.006   CPU_ReadMem(4 bytes @ 0xE0001000)
T1E5C 000:444.686 - 5.403ms 
T1E5C 000:444.719 JLINK_IsHalted()
T1E5C 000:445.413 - 0.693ms returns FALSE
T1E5C 000:445.429 JLINK_HasError()
T1E5C 000:460.629 JLINK_IsHalted()
T1E5C 000:464.521 - 3.889ms returns TRUE
T1E5C 000:464.575 JLINK_ReadReg(R15 (PC))
T1E5C 000:464.589 - 0.014ms returns 0x18000000
T1E5C 000:464.596 JLINK_ClrBPEx(BPHandle = 0x00000003)
T1E5C 000:464.605 - 0.008ms returns 0x00
T1E5C 000:464.615 JLINK_ReadReg(R0)
T1E5C 000:464.624 - 0.009ms returns 0x00000000
T1E5C 000:469.618 JLINK_HasError()
T1E5C 000:469.656 JLINK_WriteReg(R0, 0x1100B000)
T1E5C 000:469.668 - 0.011ms returns 0
T1E5C 000:469.675 JLINK_WriteReg(R1, 0x00001000)
T1E5C 000:469.684 - 0.008ms returns 0
T1E5C 000:469.691 JLINK_WriteReg(R2, 0x000000FF)
T1E5C 000:469.697 - 0.006ms returns 0
T1E5C 000:469.704 JLINK_WriteReg(R3, 0x00000000)
T1E5C 000:469.710 - 0.006ms returns 0
T1E5C 000:469.717 JLINK_WriteReg(R4, 0x00000000)
T1E5C 000:469.723 - 0.006ms returns 0
T1E5C 000:469.730 JLINK_WriteReg(R5, 0x00000000)
T1E5C 000:469.736 - 0.006ms returns 0
T1E5C 000:469.743 JLINK_WriteReg(R6, 0x00000000)
T1E5C 000:469.750 - 0.006ms returns 0
T1E5C 000:469.756 JLINK_WriteReg(R7, 0x00000000)
T1E5C 000:469.763 - 0.006ms returns 0
T1E5C 000:469.770 JLINK_WriteReg(R8, 0x00000000)
T1E5C 000:469.776 - 0.006ms returns 0
T1E5C 000:469.783 JLINK_WriteReg(R9, 0x180000B4)
T1E5C 000:469.789 - 0.006ms returns 0
T1E5C 000:469.796 JLINK_WriteReg(R10, 0x00000000)
T1E5C 000:469.803 - 0.006ms returns 0
T1E5C 000:469.810 JLINK_WriteReg(R11, 0x00000000)
T1E5C 000:469.816 - 0.006ms returns 0
T1E5C 000:469.823 JLINK_WriteReg(R12, 0x00000000)
T1E5C 000:469.830 - 0.006ms returns 0
T1E5C 000:469.837 JLINK_WriteReg(R13 (SP), 0x18001000)
T1E5C 000:469.855 - 0.018ms returns 0
T1E5C 000:469.862 JLINK_WriteReg(R14, 0x18000001)
T1E5C 000:469.868 - 0.006ms returns 0
T1E5C 000:469.875 JLINK_WriteReg(R15 (PC), 0x18000090)
T1E5C 000:469.881 - 0.006ms returns 0
T1E5C 000:469.888 JLINK_WriteReg(XPSR, 0x01000000)
T1E5C 000:469.895 - 0.006ms returns 0
T1E5C 000:469.902 JLINK_WriteReg(MSP, 0x18001000)
T1E5C 000:469.908 - 0.006ms returns 0
T1E5C 000:469.915 JLINK_WriteReg(PSP, 0x18001000)
T1E5C 000:469.921 - 0.006ms returns 0
T1E5C 000:469.928 JLINK_WriteReg(CFBP, 0x00000000)
T1E5C 000:469.934 - 0.006ms returns 0
T1E5C 000:469.942 JLINK_SetBPEx(Addr = 0x18000000, Type = 0xFFFFFFF2)
T1E5C 000:469.951 - 0.009ms returns 0x00000004
T1E5C 000:469.964 JLINK_Go()
T1E5C 000:469.982   CPU_WriteMem(4 bytes @ 0xE0002000)
T1E5C 000:470.655   CPU_ReadMem(4 bytes @ 0xE0001000)
T1E5C 000:474.582 - 4.622ms 
T1E5C 000:474.617 JLINK_IsHalted()
T1E5C 000:478.326 - 3.708ms returns TRUE
T1E5C 000:478.358 JLINK_ReadReg(R15 (PC))
T1E5C 000:478.365 - 0.006ms returns 0x18000000
T1E5C 000:478.370 JLINK_ClrBPEx(BPHandle = 0x00000004)
T1E5C 000:478.376 - 0.005ms returns 0x00
T1E5C 000:478.381 JLINK_ReadReg(R0)
T1E5C 000:478.385 - 0.004ms returns 0x00000001
T1E5C 000:478.392 JLINK_HasError()
T1E5C 000:478.398 JLINK_WriteReg(R0, 0x1100B000)
T1E5C 000:478.403 - 0.004ms returns 0
T1E5C 000:478.408 JLINK_WriteReg(R1, 0x00001000)
T1E5C 000:478.412 - 0.004ms returns 0
T1E5C 000:478.417 JLINK_WriteReg(R2, 0x000000FF)
T1E5C 000:478.421 - 0.004ms returns 0
T1E5C 000:478.426 JLINK_WriteReg(R3, 0x00000000)
T1E5C 000:478.430 - 0.004ms returns 0
T1E5C 000:478.435 JLINK_WriteReg(R4, 0x00000000)
T1E5C 000:478.439 - 0.004ms returns 0
T1E5C 000:478.445 JLINK_WriteReg(R5, 0x00000000)
T1E5C 000:478.449 - 0.004ms returns 0
T1E5C 000:478.454 JLINK_WriteReg(R6, 0x00000000)
T1E5C 000:478.458 - 0.004ms returns 0
T1E5C 000:478.463 JLINK_WriteReg(R7, 0x00000000)
T1E5C 000:478.467 - 0.004ms returns 0
T1E5C 000:478.472 JLINK_WriteReg(R8, 0x00000000)
T1E5C 000:478.476 - 0.004ms returns 0
T1E5C 000:478.481 JLINK_WriteReg(R9, 0x180000B4)
T1E5C 000:478.486 - 0.004ms returns 0
T1E5C 000:478.490 JLINK_WriteReg(R10, 0x00000000)
T1E5C 000:478.495 - 0.004ms returns 0
T1E5C 000:478.499 JLINK_WriteReg(R11, 0x00000000)
T1E5C 000:478.504 - 0.004ms returns 0
T1E5C 000:478.508 JLINK_WriteReg(R12, 0x00000000)
T1E5C 000:478.513 - 0.004ms returns 0
T1E5C 000:478.518 JLINK_WriteReg(R13 (SP), 0x18001000)
T1E5C 000:478.522 - 0.005ms returns 0
T1E5C 000:478.527 JLINK_WriteReg(R14, 0x18000001)
T1E5C 000:478.532 - 0.004ms returns 0
T1E5C 000:478.536 JLINK_WriteReg(R15 (PC), 0x1800004A)
T1E5C 000:478.541 - 0.004ms returns 0
T1E5C 000:478.546 JLINK_WriteReg(XPSR, 0x01000000)
T1E5C 000:478.550 - 0.004ms returns 0
T1E5C 000:478.571 JLINK_WriteReg(MSP, 0x18001000)
T1E5C 000:478.575 - 0.004ms returns 0
T1E5C 000:478.580 JLINK_WriteReg(PSP, 0x18001000)
T1E5C 000:478.585 - 0.004ms returns 0
T1E5C 000:478.589 JLINK_WriteReg(CFBP, 0x00000000)
T1E5C 000:478.594 - 0.004ms returns 0
T1E5C 000:478.599 JLINK_SetBPEx(Addr = 0x18000000, Type = 0xFFFFFFF2)
T1E5C 000:478.605 - 0.005ms returns 0x00000005
T1E5C 000:478.610 JLINK_Go()
T1E5C 000:478.620   CPU_WriteMem(4 bytes @ 0xE0002000)
T1E5C 000:479.219   CPU_ReadMem(4 bytes @ 0xE0001000)
T1E5C 000:483.274 - 4.663ms 
T1E5C 000:483.323 JLINK_IsHalted()
T1E5C 000:483.885 - 0.562ms returns FALSE
T1E5C 000:483.914 JLINK_HasError()
T1E5C 000:487.336 JLINK_IsHalted()
T1E5C 000:490.908 - 3.570ms returns TRUE
T1E5C 000:490.942 JLINK_ReadReg(R15 (PC))
T1E5C 000:490.953 - 0.010ms returns 0x18000000
T1E5C 000:490.958 JLINK_ClrBPEx(BPHandle = 0x00000005)
T1E5C 000:490.964 - 0.005ms returns 0x00
T1E5C 000:490.970 JLINK_ReadReg(R0)
T1E5C 000:490.975 - 0.005ms returns 0x00000000
T1E5C 000:491.797 JLINK_HasError()
T1E5C 000:491.815 JLINK_WriteReg(R0, 0x1100C000)
T1E5C 000:491.822 - 0.006ms returns 0
T1E5C 000:491.828 JLINK_WriteReg(R1, 0x00001000)
T1E5C 000:491.833 - 0.005ms returns 0
T1E5C 000:491.838 JLINK_WriteReg(R2, 0x000000FF)
T1E5C 000:491.853 - 0.014ms returns 0
T1E5C 000:491.858 JLINK_WriteReg(R3, 0x00000000)
T1E5C 000:491.863 - 0.004ms returns 0
T1E5C 000:491.868 JLINK_WriteReg(R4, 0x00000000)
T1E5C 000:491.873 - 0.004ms returns 0
T1E5C 000:491.878 JLINK_WriteReg(R5, 0x00000000)
T1E5C 000:491.883 - 0.004ms returns 0
T1E5C 000:491.888 JLINK_WriteReg(R6, 0x00000000)
T1E5C 000:491.893 - 0.004ms returns 0
T1E5C 000:491.898 JLINK_WriteReg(R7, 0x00000000)
T1E5C 000:491.903 - 0.004ms returns 0
T1E5C 000:491.908 JLINK_WriteReg(R8, 0x00000000)
T1E5C 000:491.913 - 0.005ms returns 0
T1E5C 000:491.918 JLINK_WriteReg(R9, 0x180000B4)
T1E5C 000:491.923 - 0.004ms returns 0
T1E5C 000:491.928 JLINK_WriteReg(R10, 0x00000000)
T1E5C 000:491.933 - 0.004ms returns 0
T1E5C 000:491.938 JLINK_WriteReg(R11, 0x00000000)
T1E5C 000:491.943 - 0.004ms returns 0
T1E5C 000:491.948 JLINK_WriteReg(R12, 0x00000000)
T1E5C 000:491.953 - 0.004ms returns 0
T1E5C 000:491.959 JLINK_WriteReg(R13 (SP), 0x18001000)
T1E5C 000:491.964 - 0.005ms returns 0
T1E5C 000:491.970 JLINK_WriteReg(R14, 0x18000001)
T1E5C 000:491.974 - 0.004ms returns 0
T1E5C 000:491.980 JLINK_WriteReg(R15 (PC), 0x18000090)
T1E5C 000:491.984 - 0.004ms returns 0
T1E5C 000:491.990 JLINK_WriteReg(XPSR, 0x01000000)
T1E5C 000:491.994 - 0.004ms returns 0
T1E5C 000:492.000 JLINK_WriteReg(MSP, 0x18001000)
T1E5C 000:492.004 - 0.004ms returns 0
T1E5C 000:492.010 JLINK_WriteReg(PSP, 0x18001000)
T1E5C 000:492.014 - 0.004ms returns 0
T1E5C 000:492.020 JLINK_WriteReg(CFBP, 0x00000000)
T1E5C 000:492.024 - 0.004ms returns 0
T1E5C 000:492.031 JLINK_SetBPEx(Addr = 0x18000000, Type = 0xFFFFFFF2)
T1E5C 000:492.037 - 0.006ms returns 0x00000006
T1E5C 000:492.043 JLINK_Go()
T1E5C 000:492.054   CPU_WriteMem(4 bytes @ 0xE0002000)
T1E5C 000:492.758   CPU_ReadMem(4 bytes @ 0xE0001000)
T1E5C 000:496.947 - 4.903ms 
T1E5C 000:497.777 JLINK_IsHalted()
T1E5C 000:501.307 - 3.530ms returns TRUE
T1E5C 000:501.366 JLINK_ReadReg(R15 (PC))
T1E5C 000:501.373 - 0.007ms returns 0x18000000
T1E5C 000:501.378 JLINK_ClrBPEx(BPHandle = 0x00000006)
T1E5C 000:501.383 - 0.005ms returns 0x00
T1E5C 000:501.389 JLINK_ReadReg(R0)
T1E5C 000:501.394 - 0.004ms returns 0x00000001
T1E5C 000:501.399 JLINK_HasError()
T1E5C 000:501.405 JLINK_WriteReg(R0, 0x1100C000)
T1E5C 000:501.410 - 0.004ms returns 0
T1E5C 000:501.415 JLINK_WriteReg(R1, 0x00001000)
T1E5C 000:501.419 - 0.004ms returns 0
T1E5C 000:501.424 JLINK_WriteReg(R2, 0x000000FF)
T1E5C 000:501.428 - 0.004ms returns 0
T1E5C 000:501.433 JLINK_WriteReg(R3, 0x00000000)
T1E5C 000:501.437 - 0.004ms returns 0
T1E5C 000:501.442 JLINK_WriteReg(R4, 0x00000000)
T1E5C 000:501.446 - 0.004ms returns 0
T1E5C 000:501.451 JLINK_WriteReg(R5, 0x00000000)
T1E5C 000:501.455 - 0.004ms returns 0
T1E5C 000:501.460 JLINK_WriteReg(R6, 0x00000000)
T1E5C 000:501.464 - 0.004ms returns 0
T1E5C 000:501.469 JLINK_WriteReg(R7, 0x00000000)
T1E5C 000:501.473 - 0.004ms returns 0
T1E5C 000:501.478 JLINK_WriteReg(R8, 0x00000000)
T1E5C 000:501.482 - 0.004ms returns 0
T1E5C 000:501.487 JLINK_WriteReg(R9, 0x180000B4)
T1E5C 000:501.492 - 0.004ms returns 0
T1E5C 000:501.497 JLINK_WriteReg(R10, 0x00000000)
T1E5C 000:501.501 - 0.004ms returns 0
T1E5C 000:501.506 JLINK_WriteReg(R11, 0x00000000)
T1E5C 000:501.510 - 0.004ms returns 0
T1E5C 000:501.515 JLINK_WriteReg(R12, 0x00000000)
T1E5C 000:501.519 - 0.004ms returns 0
T1E5C 000:501.524 JLINK_WriteReg(R13 (SP), 0x18001000)
T1E5C 000:501.529 - 0.005ms returns 0
T1E5C 000:501.534 JLINK_WriteReg(R14, 0x18000001)
T1E5C 000:501.538 - 0.004ms returns 0
T1E5C 000:501.543 JLINK_WriteReg(R15 (PC), 0x1800004A)
T1E5C 000:501.547 - 0.004ms returns 0
T1E5C 000:501.552 JLINK_WriteReg(XPSR, 0x01000000)
T1E5C 000:501.557 - 0.004ms returns 0
T1E5C 000:501.561 JLINK_WriteReg(MSP, 0x18001000)
T1E5C 000:501.566 - 0.004ms returns 0
T1E5C 000:501.571 JLINK_WriteReg(PSP, 0x18001000)
T1E5C 000:501.575 - 0.004ms returns 0
T1E5C 000:501.580 JLINK_WriteReg(CFBP, 0x00000000)
T1E5C 000:501.584 - 0.004ms returns 0
T1E5C 000:501.589 JLINK_SetBPEx(Addr = 0x18000000, Type = 0xFFFFFFF2)
T1E5C 000:501.603 - 0.014ms returns 0x00000007
T1E5C 000:501.609 JLINK_Go()
T1E5C 000:501.618   CPU_WriteMem(4 bytes @ 0xE0002000)
T1E5C 000:502.281   CPU_ReadMem(4 bytes @ 0xE0001000)
T1E5C 000:506.420 - 4.809ms 
T1E5C 000:506.474 JLINK_IsHalted()
T1E5C 000:506.931 - 0.455ms returns FALSE
T1E5C 000:506.964 JLINK_HasError()
T1E5C 000:508.100 JLINK_IsHalted()
T1E5C 000:508.727 - 0.626ms returns FALSE
T1E5C 000:508.758 JLINK_HasError()
T1E5C 000:510.360 JLINK_IsHalted()
T1E5C 000:514.207 - 3.847ms returns TRUE
T1E5C 000:514.243 JLINK_ReadReg(R15 (PC))
T1E5C 000:514.250 - 0.007ms returns 0x18000000
T1E5C 000:514.256 JLINK_ClrBPEx(BPHandle = 0x00000007)
T1E5C 000:514.261 - 0.005ms returns 0x00
T1E5C 000:514.267 JLINK_ReadReg(R0)
T1E5C 000:514.271 - 0.004ms returns 0x00000000
T1E5C 000:514.851 JLINK_HasError()
T1E5C 000:514.866 JLINK_WriteReg(R0, 0x1100D000)
T1E5C 000:514.872 - 0.006ms returns 0
T1E5C 000:514.877 JLINK_WriteReg(R1, 0x00001000)
T1E5C 000:514.882 - 0.004ms returns 0
T1E5C 000:514.887 JLINK_WriteReg(R2, 0x000000FF)
T1E5C 000:514.892 - 0.005ms returns 0
T1E5C 000:514.897 JLINK_WriteReg(R3, 0x00000000)
T1E5C 000:514.902 - 0.004ms returns 0
T1E5C 000:514.907 JLINK_WriteReg(R4, 0x00000000)
T1E5C 000:514.911 - 0.004ms returns 0
T1E5C 000:514.916 JLINK_WriteReg(R5, 0x00000000)
T1E5C 000:514.921 - 0.004ms returns 0
T1E5C 000:514.926 JLINK_WriteReg(R6, 0x00000000)
T1E5C 000:514.930 - 0.004ms returns 0
T1E5C 000:514.935 JLINK_WriteReg(R7, 0x00000000)
T1E5C 000:514.940 - 0.005ms returns 0
T1E5C 000:514.945 JLINK_WriteReg(R8, 0x00000000)
T1E5C 000:514.950 - 0.004ms returns 0
T1E5C 000:514.955 JLINK_WriteReg(R9, 0x180000B4)
T1E5C 000:514.959 - 0.004ms returns 0
T1E5C 000:514.964 JLINK_WriteReg(R10, 0x00000000)
T1E5C 000:514.969 - 0.004ms returns 0
T1E5C 000:514.974 JLINK_WriteReg(R11, 0x00000000)
T1E5C 000:514.979 - 0.004ms returns 0
T1E5C 000:514.984 JLINK_WriteReg(R12, 0x00000000)
T1E5C 000:514.989 - 0.004ms returns 0
T1E5C 000:514.994 JLINK_WriteReg(R13 (SP), 0x18001000)
T1E5C 000:514.999 - 0.005ms returns 0
T1E5C 000:515.004 JLINK_WriteReg(R14, 0x18000001)
T1E5C 000:515.008 - 0.004ms returns 0
T1E5C 000:515.013 JLINK_WriteReg(R15 (PC), 0x18000090)
T1E5C 000:515.018 - 0.004ms returns 0
T1E5C 000:515.023 JLINK_WriteReg(XPSR, 0x01000000)
T1E5C 000:515.028 - 0.004ms returns 0
T1E5C 000:515.033 JLINK_WriteReg(MSP, 0x18001000)
T1E5C 000:515.037 - 0.004ms returns 0
T1E5C 000:515.042 JLINK_WriteReg(PSP, 0x18001000)
T1E5C 000:515.047 - 0.004ms returns 0
T1E5C 000:515.052 JLINK_WriteReg(CFBP, 0x00000000)
T1E5C 000:515.056 - 0.004ms returns 0
T1E5C 000:515.062 JLINK_SetBPEx(Addr = 0x18000000, Type = 0xFFFFFFF2)
T1E5C 000:515.068 - 0.006ms returns 0x00000008
T1E5C 000:515.073 JLINK_Go()
T1E5C 000:515.084   CPU_WriteMem(4 bytes @ 0xE0002000)
T1E5C 000:515.713   CPU_ReadMem(4 bytes @ 0xE0001000)
T1E5C 000:520.329 - 5.254ms 
T1E5C 000:520.380 JLINK_IsHalted()
T1E5C 000:523.986 - 3.603ms returns TRUE
T1E5C 000:524.029 JLINK_ReadReg(R15 (PC))
T1E5C 000:524.040 - 0.011ms returns 0x18000000
T1E5C 000:524.047 JLINK_ClrBPEx(BPHandle = 0x00000008)
T1E5C 000:524.056 - 0.008ms returns 0x00
T1E5C 000:524.064 JLINK_ReadReg(R0)
T1E5C 000:524.071 - 0.007ms returns 0x00000001
T1E5C 000:524.080 JLINK_HasError()
T1E5C 000:524.089 JLINK_WriteReg(R0, 0x1100D000)
T1E5C 000:524.096 - 0.007ms returns 0
T1E5C 000:524.105 JLINK_WriteReg(R1, 0x00001000)
T1E5C 000:524.111 - 0.006ms returns 0
T1E5C 000:524.118 JLINK_WriteReg(R2, 0x000000FF)
T1E5C 000:524.125 - 0.006ms returns 0
T1E5C 000:524.132 JLINK_WriteReg(R3, 0x00000000)
T1E5C 000:524.138 - 0.006ms returns 0
T1E5C 000:524.146 JLINK_WriteReg(R4, 0x00000000)
T1E5C 000:524.152 - 0.006ms returns 0
T1E5C 000:524.160 JLINK_WriteReg(R5, 0x00000000)
T1E5C 000:524.166 - 0.006ms returns 0
T1E5C 000:524.174 JLINK_WriteReg(R6, 0x00000000)
T1E5C 000:524.180 - 0.006ms returns 0
T1E5C 000:524.187 JLINK_WriteReg(R7, 0x00000000)
T1E5C 000:524.194 - 0.006ms returns 0
T1E5C 000:524.201 JLINK_WriteReg(R8, 0x00000000)
T1E5C 000:524.302 - 0.100ms returns 0
T1E5C 000:524.314 JLINK_WriteReg(R9, 0x180000B4)
T1E5C 000:524.321 - 0.006ms returns 0
T1E5C 000:524.328 JLINK_WriteReg(R10, 0x00000000)
T1E5C 000:524.334 - 0.006ms returns 0
T1E5C 000:524.342 JLINK_WriteReg(R11, 0x00000000)
T1E5C 000:524.349 - 0.006ms returns 0
T1E5C 000:524.356 JLINK_WriteReg(R12, 0x00000000)
T1E5C 000:524.362 - 0.006ms returns 0
T1E5C 000:524.370 JLINK_WriteReg(R13 (SP), 0x18001000)
T1E5C 000:524.377 - 0.007ms returns 0
T1E5C 000:524.385 JLINK_WriteReg(R14, 0x18000001)
T1E5C 000:524.391 - 0.006ms returns 0
T1E5C 000:524.398 JLINK_WriteReg(R15 (PC), 0x1800004A)
T1E5C 000:524.405 - 0.006ms returns 0
T1E5C 000:524.412 JLINK_WriteReg(XPSR, 0x01000000)
T1E5C 000:524.419 - 0.006ms returns 0
T1E5C 000:524.427 JLINK_WriteReg(MSP, 0x18001000)
T1E5C 000:524.435 - 0.008ms returns 0
T1E5C 000:524.442 JLINK_WriteReg(PSP, 0x18001000)
T1E5C 000:524.450 - 0.008ms returns 0
T1E5C 000:524.469 JLINK_WriteReg(CFBP, 0x00000000)
T1E5C 000:524.475 - 0.006ms returns 0
T1E5C 000:524.483 JLINK_SetBPEx(Addr = 0x18000000, Type = 0xFFFFFFF2)
T1E5C 000:524.491 - 0.008ms returns 0x00000009
T1E5C 000:524.499 JLINK_Go()
T1E5C 000:524.513   CPU_WriteMem(4 bytes @ 0xE0002000)
T1E5C 000:525.125   CPU_ReadMem(4 bytes @ 0xE0001000)
T1E5C 000:529.458 - 4.958ms 
T1E5C 000:529.486 JLINK_IsHalted()
T1E5C 000:530.165 - 0.678ms returns FALSE
T1E5C 000:530.178 JLINK_HasError()
T1E5C 000:531.618 JLINK_IsHalted()
T1E5C 000:532.302 - 0.684ms returns FALSE
T1E5C 000:532.316 JLINK_HasError()
T1E5C 000:533.660 JLINK_IsHalted()
T1E5C 000:537.667 - 4.006ms returns TRUE
T1E5C 000:537.694 JLINK_ReadReg(R15 (PC))
T1E5C 000:537.702 - 0.007ms returns 0x18000000
T1E5C 000:537.708 JLINK_ClrBPEx(BPHandle = 0x00000009)
T1E5C 000:537.723 - 0.015ms returns 0x00
T1E5C 000:537.729 JLINK_ReadReg(R0)
T1E5C 000:537.734 - 0.005ms returns 0x00000000
T1E5C 000:538.305 JLINK_HasError()
T1E5C 000:538.317 JLINK_WriteReg(R0, 0x1100E000)
T1E5C 000:538.323 - 0.006ms returns 0
T1E5C 000:538.329 JLINK_WriteReg(R1, 0x00001000)
T1E5C 000:538.334 - 0.005ms returns 0
T1E5C 000:538.340 JLINK_WriteReg(R2, 0x000000FF)
T1E5C 000:538.345 - 0.005ms returns 0
T1E5C 000:538.350 JLINK_WriteReg(R3, 0x00000000)
T1E5C 000:538.355 - 0.005ms returns 0
T1E5C 000:538.361 JLINK_WriteReg(R4, 0x00000000)
T1E5C 000:538.366 - 0.005ms returns 0
T1E5C 000:538.372 JLINK_WriteReg(R5, 0x00000000)
T1E5C 000:538.376 - 0.005ms returns 0
T1E5C 000:538.382 JLINK_WriteReg(R6, 0x00000000)
T1E5C 000:538.387 - 0.005ms returns 0
T1E5C 000:538.393 JLINK_WriteReg(R7, 0x00000000)
T1E5C 000:538.398 - 0.005ms returns 0
T1E5C 000:538.404 JLINK_WriteReg(R8, 0x00000000)
T1E5C 000:538.409 - 0.005ms returns 0
T1E5C 000:538.414 JLINK_WriteReg(R9, 0x180000B4)
T1E5C 000:538.419 - 0.005ms returns 0
T1E5C 000:538.425 JLINK_WriteReg(R10, 0x00000000)
T1E5C 000:538.430 - 0.005ms returns 0
T1E5C 000:538.436 JLINK_WriteReg(R11, 0x00000000)
T1E5C 000:538.441 - 0.005ms returns 0
T1E5C 000:538.446 JLINK_WriteReg(R12, 0x00000000)
T1E5C 000:538.451 - 0.005ms returns 0
T1E5C 000:538.457 JLINK_WriteReg(R13 (SP), 0x18001000)
T1E5C 000:538.463 - 0.005ms returns 0
T1E5C 000:538.469 JLINK_WriteReg(R14, 0x18000001)
T1E5C 000:538.474 - 0.005ms returns 0
T1E5C 000:538.481 JLINK_WriteReg(R15 (PC), 0x18000090)
T1E5C 000:538.486 - 0.006ms returns 0
T1E5C 000:538.492 JLINK_WriteReg(XPSR, 0x01000000)
T1E5C 000:538.497 - 0.005ms returns 0
T1E5C 000:538.503 JLINK_WriteReg(MSP, 0x18001000)
T1E5C 000:538.507 - 0.005ms returns 0
T1E5C 000:538.513 JLINK_WriteReg(PSP, 0x18001000)
T1E5C 000:538.518 - 0.005ms returns 0
T1E5C 000:538.524 JLINK_WriteReg(CFBP, 0x00000000)
T1E5C 000:538.529 - 0.005ms returns 0
T1E5C 000:538.535 JLINK_SetBPEx(Addr = 0x18000000, Type = 0xFFFFFFF2)
T1E5C 000:538.541 - 0.006ms returns 0x0000000A
T1E5C 000:538.547 JLINK_Go()
T1E5C 000:538.557   CPU_WriteMem(4 bytes @ 0xE0002000)
T1E5C 000:539.263   CPU_ReadMem(4 bytes @ 0xE0001000)
T1E5C 000:543.583 - 5.034ms 
T1E5C 000:543.617 JLINK_IsHalted()
T1E5C 000:547.981 - 4.362ms returns TRUE
T1E5C 000:548.017 JLINK_ReadReg(R15 (PC))
T1E5C 000:548.026 - 0.008ms returns 0x18000000
T1E5C 000:548.031 JLINK_ClrBPEx(BPHandle = 0x0000000A)
T1E5C 000:548.037 - 0.005ms returns 0x00
T1E5C 000:548.043 JLINK_ReadReg(R0)
T1E5C 000:548.048 - 0.005ms returns 0x00000001
T1E5C 000:548.055 JLINK_HasError()
T1E5C 000:548.061 JLINK_WriteReg(R0, 0x1100E000)
T1E5C 000:548.067 - 0.005ms returns 0
T1E5C 000:548.073 JLINK_WriteReg(R1, 0x00001000)
T1E5C 000:548.077 - 0.004ms returns 0
T1E5C 000:548.083 JLINK_WriteReg(R2, 0x000000FF)
T1E5C 000:548.088 - 0.004ms returns 0
T1E5C 000:548.093 JLINK_WriteReg(R3, 0x00000000)
T1E5C 000:548.098 - 0.004ms returns 0
T1E5C 000:548.103 JLINK_WriteReg(R4, 0x00000000)
T1E5C 000:548.109 - 0.005ms returns 0
T1E5C 000:548.114 JLINK_WriteReg(R5, 0x00000000)
T1E5C 000:548.119 - 0.004ms returns 0
T1E5C 000:548.124 JLINK_WriteReg(R6, 0x00000000)
T1E5C 000:548.129 - 0.004ms returns 0
T1E5C 000:548.134 JLINK_WriteReg(R7, 0x00000000)
T1E5C 000:548.139 - 0.004ms returns 0
T1E5C 000:548.145 JLINK_WriteReg(R8, 0x00000000)
T1E5C 000:548.150 - 0.004ms returns 0
T1E5C 000:548.155 JLINK_WriteReg(R9, 0x180000B4)
T1E5C 000:548.160 - 0.004ms returns 0
T1E5C 000:548.166 JLINK_WriteReg(R10, 0x00000000)
T1E5C 000:548.170 - 0.005ms returns 0
T1E5C 000:548.176 JLINK_WriteReg(R11, 0x00000000)
T1E5C 000:548.181 - 0.004ms returns 0
T1E5C 000:548.186 JLINK_WriteReg(R12, 0x00000000)
T1E5C 000:548.191 - 0.004ms returns 0
T1E5C 000:548.196 JLINK_WriteReg(R13 (SP), 0x18001000)
T1E5C 000:548.201 - 0.005ms returns 0
T1E5C 000:548.207 JLINK_WriteReg(R14, 0x18000001)
T1E5C 000:548.212 - 0.004ms returns 0
T1E5C 000:548.217 JLINK_WriteReg(R15 (PC), 0x1800004A)
T1E5C 000:548.222 - 0.005ms returns 0
T1E5C 000:548.228 JLINK_WriteReg(XPSR, 0x01000000)
T1E5C 000:548.233 - 0.005ms returns 0
T1E5C 000:548.239 JLINK_WriteReg(MSP, 0x18001000)
T1E5C 000:548.243 - 0.004ms returns 0
T1E5C 000:548.249 JLINK_WriteReg(PSP, 0x18001000)
T1E5C 000:548.254 - 0.004ms returns 0
T1E5C 000:548.259 JLINK_WriteReg(CFBP, 0x00000000)
T1E5C 000:548.264 - 0.004ms returns 0
T1E5C 000:548.270 JLINK_SetBPEx(Addr = 0x18000000, Type = 0xFFFFFFF2)
T1E5C 000:548.276 - 0.006ms returns 0x0000000B
T1E5C 000:548.281 JLINK_Go()
T1E5C 000:548.292   CPU_WriteMem(4 bytes @ 0xE0002000)
T1E5C 000:549.093   CPU_ReadMem(4 bytes @ 0xE0001000)
T1E5C 000:553.383 - 5.100ms 
T1E5C 000:553.424 JLINK_IsHalted()
T1E5C 000:554.112 - 0.687ms returns FALSE
T1E5C 000:554.133 JLINK_HasError()
T1E5C 000:555.968 JLINK_IsHalted()
T1E5C 000:556.604 - 0.634ms returns FALSE
T1E5C 000:556.636 JLINK_HasError()
T1E5C 000:560.129 JLINK_IsHalted()
T1E5C 000:564.267 - 4.137ms returns TRUE
T1E5C 000:564.303 JLINK_ReadReg(R15 (PC))
T1E5C 000:564.312 - 0.009ms returns 0x18000000
T1E5C 000:564.319 JLINK_ClrBPEx(BPHandle = 0x0000000B)
T1E5C 000:564.325 - 0.006ms returns 0x00
T1E5C 000:564.332 JLINK_ReadReg(R0)
T1E5C 000:564.338 - 0.006ms returns 0x00000000
T1E5C 000:567.778 JLINK_HasError()
T1E5C 000:567.797 JLINK_WriteReg(R0, 0x00000001)
T1E5C 000:567.805 - 0.007ms returns 0
T1E5C 000:567.810 JLINK_WriteReg(R1, 0x00001000)
T1E5C 000:567.815 - 0.005ms returns 0
T1E5C 000:567.822 JLINK_WriteReg(R2, 0x000000FF)
T1E5C 000:567.826 - 0.004ms returns 0
T1E5C 000:567.831 JLINK_WriteReg(R3, 0x00000000)
T1E5C 000:567.836 - 0.004ms returns 0
T1E5C 000:567.841 JLINK_WriteReg(R4, 0x00000000)
T1E5C 000:567.846 - 0.004ms returns 0
T1E5C 000:567.851 JLINK_WriteReg(R5, 0x00000000)
T1E5C 000:567.856 - 0.004ms returns 0
T1E5C 000:567.861 JLINK_WriteReg(R6, 0x00000000)
T1E5C 000:567.865 - 0.004ms returns 0
T1E5C 000:567.871 JLINK_WriteReg(R7, 0x00000000)
T1E5C 000:567.875 - 0.004ms returns 0
T1E5C 000:567.880 JLINK_WriteReg(R8, 0x00000000)
T1E5C 000:567.885 - 0.004ms returns 0
T1E5C 000:567.890 JLINK_WriteReg(R9, 0x180000B4)
T1E5C 000:567.895 - 0.004ms returns 0
T1E5C 000:567.900 JLINK_WriteReg(R10, 0x00000000)
T1E5C 000:567.905 - 0.005ms returns 0
T1E5C 000:567.910 JLINK_WriteReg(R11, 0x00000000)
T1E5C 000:567.920 - 0.010ms returns 0
T1E5C 000:567.929 JLINK_WriteReg(R12, 0x00000000)
T1E5C 000:567.934 - 0.004ms returns 0
T1E5C 000:567.939 JLINK_WriteReg(R13 (SP), 0x18001000)
T1E5C 000:567.945 - 0.005ms returns 0
T1E5C 000:567.962 JLINK_WriteReg(R14, 0x18000001)
T1E5C 000:567.967 - 0.004ms returns 0
T1E5C 000:567.973 JLINK_WriteReg(R15 (PC), 0x18000024)
T1E5C 000:567.977 - 0.004ms returns 0
T1E5C 000:567.983 JLINK_WriteReg(XPSR, 0x01000000)
T1E5C 000:567.987 - 0.004ms returns 0
T1E5C 000:567.992 JLINK_WriteReg(MSP, 0x18001000)
T1E5C 000:567.997 - 0.004ms returns 0
T1E5C 000:568.002 JLINK_WriteReg(PSP, 0x18001000)
T1E5C 000:568.007 - 0.004ms returns 0
T1E5C 000:568.012 JLINK_WriteReg(CFBP, 0x00000000)
T1E5C 000:568.017 - 0.004ms returns 0
T1E5C 000:568.023 JLINK_SetBPEx(Addr = 0x18000000, Type = 0xFFFFFFF2)
T1E5C 000:568.030 - 0.007ms returns 0x0000000C
T1E5C 000:568.035 JLINK_Go()
T1E5C 000:568.047   CPU_WriteMem(4 bytes @ 0xE0002000)
T1E5C 000:568.735   CPU_ReadMem(4 bytes @ 0xE0001000)
T1E5C 000:572.904 - 4.868ms 
T1E5C 000:572.920 JLINK_IsHalted()
T1E5C 000:576.400 - 3.479ms returns TRUE
T1E5C 000:576.432 JLINK_ReadReg(R15 (PC))
T1E5C 000:576.440 - 0.007ms returns 0x18000000
T1E5C 000:576.446 JLINK_ClrBPEx(BPHandle = 0x0000000C)
T1E5C 000:576.451 - 0.005ms returns 0x00
T1E5C 000:576.456 JLINK_ReadReg(R0)
T1E5C 000:576.461 - 0.004ms returns 0x00000000
T1E5C 000:640.269 JLINK_WriteMem(0x18000000, 0xD8 Bytes, ...)
T1E5C 000:640.292   Data:  00 BE 0A E0 0D 78 2D 06 68 40 08 24 40 00 00 D3 ...
T1E5C 000:640.326   CPU_WriteMem(216 bytes @ 0x18000000)
T1E5C 000:642.582 - 2.314ms returns 0xD8
T1E5C 000:642.802 JLINK_HasError()
T1E5C 000:642.818 JLINK_WriteReg(R0, 0x1100A000)
T1E5C 000:642.827 - 0.008ms returns 0
T1E5C 000:642.832 JLINK_WriteReg(R1, 0x00B71B00)
T1E5C 000:642.837 - 0.005ms returns 0
T1E5C 000:642.842 JLINK_WriteReg(R2, 0x00000002)
T1E5C 000:642.846 - 0.004ms returns 0
T1E5C 000:642.851 JLINK_WriteReg(R3, 0x00000000)
T1E5C 000:642.855 - 0.004ms returns 0
T1E5C 000:642.860 JLINK_WriteReg(R4, 0x00000000)
T1E5C 000:642.864 - 0.004ms returns 0
T1E5C 000:642.869 JLINK_WriteReg(R5, 0x00000000)
T1E5C 000:642.874 - 0.004ms returns 0
T1E5C 000:642.879 JLINK_WriteReg(R6, 0x00000000)
T1E5C 000:642.883 - 0.004ms returns 0
T1E5C 000:642.888 JLINK_WriteReg(R7, 0x00000000)
T1E5C 000:642.892 - 0.004ms returns 0
T1E5C 000:642.897 JLINK_WriteReg(R8, 0x00000000)
T1E5C 000:642.901 - 0.004ms returns 0
T1E5C 000:642.906 JLINK_WriteReg(R9, 0x180000B4)
T1E5C 000:642.911 - 0.004ms returns 0
T1E5C 000:642.915 JLINK_WriteReg(R10, 0x00000000)
T1E5C 000:642.920 - 0.004ms returns 0
T1E5C 000:642.924 JLINK_WriteReg(R11, 0x00000000)
T1E5C 000:642.929 - 0.004ms returns 0
T1E5C 000:642.934 JLINK_WriteReg(R12, 0x00000000)
T1E5C 000:642.938 - 0.004ms returns 0
T1E5C 000:642.943 JLINK_WriteReg(R13 (SP), 0x18001000)
T1E5C 000:642.948 - 0.005ms returns 0
T1E5C 000:642.953 JLINK_WriteReg(R14, 0x18000001)
T1E5C 000:642.958 - 0.004ms returns 0
T1E5C 000:642.963 JLINK_WriteReg(R15 (PC), 0x18000020)
T1E5C 000:642.967 - 0.004ms returns 0
T1E5C 000:642.972 JLINK_WriteReg(XPSR, 0x01000000)
T1E5C 000:642.976 - 0.004ms returns 0
T1E5C 000:642.981 JLINK_WriteReg(MSP, 0x18001000)
T1E5C 000:642.985 - 0.004ms returns 0
T1E5C 000:642.990 JLINK_WriteReg(PSP, 0x18001000)
T1E5C 000:642.994 - 0.004ms returns 0
T1E5C 000:642.999 JLINK_WriteReg(CFBP, 0x00000000)
T1E5C 000:643.003 - 0.004ms returns 0
T1E5C 000:643.009 JLINK_SetBPEx(Addr = 0x18000000, Type = 0xFFFFFFF2)
T1E5C 000:643.016 - 0.006ms returns 0x0000000D
T1E5C 000:643.021 JLINK_Go()
T1E5C 000:643.032   CPU_WriteMem(4 bytes @ 0xE0002000)
T1E5C 000:643.718   CPU_ReadMem(4 bytes @ 0xE0001000)
T1E5C 000:647.994 - 4.971ms 
T1E5C 000:648.048 JLINK_IsHalted()
T1E5C 000:651.607 - 3.558ms returns TRUE
T1E5C 000:651.678 JLINK_ReadReg(R15 (PC))
T1E5C 000:651.691 - 0.013ms returns 0x18000000
T1E5C 000:651.696 JLINK_ClrBPEx(BPHandle = 0x0000000D)
T1E5C 000:651.702 - 0.005ms returns 0x00
T1E5C 000:651.724 JLINK_ReadReg(R0)
T1E5C 000:651.752 - 0.043ms returns 0x00000000
T1E5C 000:652.433 JLINK_WriteMem(0x180000D8, 0x80 Bytes, ...)
T1E5C 000:652.444   Data:  68 03 00 18 1D A1 00 11 25 A1 00 11 31 AA 00 11 ...
T1E5C 000:652.481   CPU_WriteMem(128 bytes @ 0x180000D8)
T1E5C 000:654.559 - 2.126ms returns 0x80
T1E5C 000:654.577 JLINK_HasError()
T1E5C 000:654.584 JLINK_WriteReg(R0, 0x1100A000)
T1E5C 000:654.590 - 0.006ms returns 0
T1E5C 000:654.595 JLINK_WriteReg(R1, 0x00000080)
T1E5C 000:654.599 - 0.004ms returns 0
T1E5C 000:654.604 JLINK_WriteReg(R2, 0x180000D8)
T1E5C 000:654.608 - 0.004ms returns 0
T1E5C 000:654.613 JLINK_WriteReg(R3, 0x00000000)
T1E5C 000:654.617 - 0.004ms returns 0
T1E5C 000:654.622 JLINK_WriteReg(R4, 0x00000000)
T1E5C 000:654.626 - 0.004ms returns 0
T1E5C 000:654.631 JLINK_WriteReg(R5, 0x00000000)
T1E5C 000:654.635 - 0.004ms returns 0
T1E5C 000:654.640 JLINK_WriteReg(R6, 0x00000000)
T1E5C 000:654.644 - 0.004ms returns 0
T1E5C 000:654.649 JLINK_WriteReg(R7, 0x00000000)
T1E5C 000:654.653 - 0.004ms returns 0
T1E5C 000:654.658 JLINK_WriteReg(R8, 0x00000000)
T1E5C 000:654.662 - 0.004ms returns 0
T1E5C 000:654.667 JLINK_WriteReg(R9, 0x180000B4)
T1E5C 000:654.671 - 0.004ms returns 0
T1E5C 000:654.676 JLINK_WriteReg(R10, 0x00000000)
T1E5C 000:654.681 - 0.004ms returns 0
T1E5C 000:654.686 JLINK_WriteReg(R11, 0x00000000)
T1E5C 000:654.690 - 0.004ms returns 0
T1E5C 000:654.695 JLINK_WriteReg(R12, 0x00000000)
T1E5C 000:654.699 - 0.004ms returns 0
T1E5C 000:654.704 JLINK_WriteReg(R13 (SP), 0x18001000)
T1E5C 000:654.709 - 0.005ms returns 0
T1E5C 000:654.714 JLINK_WriteReg(R14, 0x18000001)
T1E5C 000:654.718 - 0.004ms returns 0
T1E5C 000:654.723 JLINK_WriteReg(R15 (PC), 0x18000056)
T1E5C 000:654.727 - 0.004ms returns 0
T1E5C 000:654.732 JLINK_WriteReg(XPSR, 0x01000000)
T1E5C 000:654.737 - 0.004ms returns 0
T1E5C 000:654.741 JLINK_WriteReg(MSP, 0x18001000)
T1E5C 000:654.746 - 0.004ms returns 0
T1E5C 000:654.750 JLINK_WriteReg(PSP, 0x18001000)
T1E5C 000:654.755 - 0.004ms returns 0
T1E5C 000:654.759 JLINK_WriteReg(CFBP, 0x00000000)
T1E5C 000:654.764 - 0.004ms returns 0
T1E5C 000:654.769 JLINK_SetBPEx(Addr = 0x18000000, Type = 0xFFFFFFF2)
T1E5C 000:654.774 - 0.005ms returns 0x0000000E
T1E5C 000:654.779 JLINK_Go()
T1E5C 000:654.786   CPU_WriteMem(4 bytes @ 0xE0002000)
T1E5C 000:655.469   CPU_ReadMem(4 bytes @ 0xE0001000)
T1E5C 000:659.729 - 4.949ms 
T1E5C 000:659.790 JLINK_IsHalted()
T1E5C 000:660.421 - 0.629ms returns FALSE
T1E5C 000:660.434 JLINK_HasError()
T1E5C 000:673.472 JLINK_IsHalted()
T1E5C 000:677.069 - 3.595ms returns TRUE
T1E5C 000:677.103 JLINK_ReadReg(R15 (PC))
T1E5C 000:677.110 - 0.007ms returns 0x18000000
T1E5C 000:677.116 JLINK_ClrBPEx(BPHandle = 0x0000000E)
T1E5C 000:677.121 - 0.005ms returns 0x00
T1E5C 000:677.126 JLINK_ReadReg(R0)
T1E5C 000:677.131 - 0.004ms returns 0x00000000
T1E5C 000:677.647 JLINK_WriteMem(0x180000D8, 0x80 Bytes, ...)
T1E5C 000:677.658   Data:  00 F0 02 F8 00 F0 3A F8 0A A0 90 E8 00 0C 82 44 ...
T1E5C 000:677.673   CPU_WriteMem(128 bytes @ 0x180000D8)
T1E5C 000:679.555 - 1.907ms returns 0x80
T1E5C 000:679.577 JLINK_HasError()
T1E5C 000:679.583 JLINK_WriteReg(R0, 0x1100A080)
T1E5C 000:679.591 - 0.007ms returns 0
T1E5C 000:679.596 JLINK_WriteReg(R1, 0x00000080)
T1E5C 000:679.600 - 0.004ms returns 0
T1E5C 000:679.606 JLINK_WriteReg(R2, 0x180000D8)
T1E5C 000:679.610 - 0.004ms returns 0
T1E5C 000:679.615 JLINK_WriteReg(R3, 0x00000000)
T1E5C 000:679.619 - 0.004ms returns 0
T1E5C 000:679.624 JLINK_WriteReg(R4, 0x00000000)
T1E5C 000:679.628 - 0.004ms returns 0
T1E5C 000:679.633 JLINK_WriteReg(R5, 0x00000000)
T1E5C 000:679.637 - 0.004ms returns 0
T1E5C 000:679.642 JLINK_WriteReg(R6, 0x00000000)
T1E5C 000:679.646 - 0.004ms returns 0
T1E5C 000:679.651 JLINK_WriteReg(R7, 0x00000000)
T1E5C 000:679.655 - 0.004ms returns 0
T1E5C 000:679.660 JLINK_WriteReg(R8, 0x00000000)
T1E5C 000:679.664 - 0.004ms returns 0
T1E5C 000:679.669 JLINK_WriteReg(R9, 0x180000B4)
T1E5C 000:679.673 - 0.004ms returns 0
T1E5C 000:679.678 JLINK_WriteReg(R10, 0x00000000)
T1E5C 000:679.689 - 0.010ms returns 0
T1E5C 000:679.696 JLINK_WriteReg(R11, 0x00000000)
T1E5C 000:679.701 - 0.004ms returns 0
T1E5C 000:679.705 JLINK_WriteReg(R12, 0x00000000)
T1E5C 000:679.710 - 0.004ms returns 0
T1E5C 000:679.715 JLINK_WriteReg(R13 (SP), 0x18001000)
T1E5C 000:679.719 - 0.004ms returns 0
T1E5C 000:679.724 JLINK_WriteReg(R14, 0x18000001)
T1E5C 000:679.729 - 0.004ms returns 0
T1E5C 000:679.734 JLINK_WriteReg(R15 (PC), 0x18000056)
T1E5C 000:679.738 - 0.004ms returns 0
T1E5C 000:679.743 JLINK_WriteReg(XPSR, 0x01000000)
T1E5C 000:679.747 - 0.004ms returns 0
T1E5C 000:679.752 JLINK_WriteReg(MSP, 0x18001000)
T1E5C 000:679.756 - 0.004ms returns 0
T1E5C 000:679.761 JLINK_WriteReg(PSP, 0x18001000)
T1E5C 000:679.765 - 0.004ms returns 0
T1E5C 000:679.770 JLINK_WriteReg(CFBP, 0x00000000)
T1E5C 000:679.774 - 0.004ms returns 0
T1E5C 000:679.780 JLINK_SetBPEx(Addr = 0x18000000, Type = 0xFFFFFFF2)
T1E5C 000:679.786 - 0.006ms returns 0x0000000F
T1E5C 000:679.791 JLINK_Go()
T1E5C 000:679.799   CPU_WriteMem(4 bytes @ 0xE0002000)
T1E5C 000:680.400   CPU_ReadMem(4 bytes @ 0xE0001000)
T1E5C 000:684.781 - 4.988ms 
T1E5C 000:684.821 JLINK_IsHalted()
T1E5C 000:685.466 - 0.644ms returns FALSE
T1E5C 000:685.483 JLINK_HasError()
T1E5C 000:687.083 JLINK_IsHalted()
T1E5C 000:690.632 - 3.547ms returns TRUE
T1E5C 000:690.673 JLINK_ReadReg(R15 (PC))
T1E5C 000:690.688 - 0.015ms returns 0x18000000
T1E5C 000:690.696 JLINK_ClrBPEx(BPHandle = 0x0000000F)
T1E5C 000:690.703 - 0.007ms returns 0x00
T1E5C 000:690.711 JLINK_ReadReg(R0)
T1E5C 000:690.718 - 0.006ms returns 0x00000000
T1E5C 000:691.645 JLINK_WriteMem(0x180000D8, 0x80 Bytes, ...)
T1E5C 000:691.706   Data:  11 46 FF F7 F7 FF 01 F0 59 F8 00 F0 7F F8 03 B4 ...
T1E5C 000:691.746   CPU_WriteMem(128 bytes @ 0x180000D8)
T1E5C 000:693.384 - 1.744ms returns 0x80
T1E5C 000:693.421 JLINK_HasError()
